Circuit: * C:\Users\Gonzalo\Documents\FIUBA\Materias\Trabajo Profesional Ingeniería Electrónica (86.99)\Proyecto\Hardware\TP-Hardware_PCB\sensores\temperatura.asc

Direct Newton iteration for .op point succeeded.
Semiconductor Device Operating Points:
                        --- Diodes ---
Name:    d:u1:p      d:u1:ln     d:u1:lp     d:u1:e      d:u1:c
Model:    u1:dx       u1:dx       u1:dx       u1:dx       u1:dx
Id:     -3.30e-12   -2.50e-11   -2.50e-11   -1.18e-12    1.14e-08
Vd:     -3.30e+00   -2.50e+01   -2.50e+01   -1.18e+00    4.26e-01
Req:     1.00e+12    1.00e+12    1.00e+12    1.00e+12    2.28e+06
CAP:     0.00e+00    0.00e+00    0.00e+00    0.00e+00    0.00e+00

                        --- JFET Transistors ---
Name:    j:u1:2      j:u1:1
Model:    u1:jx       u1:jx
Id:     -2.90e-05   -2.90e-05
Vgs:    -5.87e-02   -5.87e-02
Vds:    -2.33e+00   -2.33e+00
Gm:      2.76e-04    2.76e-04
Gds:     0.00e+00    0.00e+00
Cgs:     0.00e+00    0.00e+00
Cgd:     0.00e+00    0.00e+00



Date: Mon Sep 19 19:13:38 2022
Total elapsed time: 1.073 seconds.

tnom = 27
temp = 27
method = trap
totiter = 7
traniter = 0
tranpoints = 0
accept = 0
rejected = 0
matrix size = 28
fillins = 40
Matrix Compiler1: 4.58 KB object code size
Matrix Compiler2: 3.43 KB object code size
