Circuit: * C:\Users\Gonzalo\Documents\FIUBA\Materias\Trabajo Profesional Ingeniería Electrónica (86.99)\Proyecto\Hardware\TP-Hardware_PCB\sensores\temperatura.asc

Direct Newton iteration for .op point succeeded.
Semiconductor Device Operating Points:
                        --- Diodes ---
Name:    d:u1:p      d:u1:ln     d:u1:lp     d:u1:e      d:u1:c
Model:    u1:dx       u1:dx       u1:dx       u1:dx       u1:dx
Id:     -3.30e-12   -4.00e-11   -4.00e-11   -1.11e-12    3.17e-07
Vd:     -3.30e+00   -4.00e+01   -4.00e+01   -1.11e+00    5.12e-01
Req:     1.00e+12    1.00e+12    1.00e+12    1.00e+12    8.15e+04
CAP:     0.00e+00    0.00e+00    0.00e+00    0.00e+00    0.00e+00

                        --- Bipolar Transistors ---
Name:     q:u1:2      q:u1:1
Model:     u1:qx       u1:qx
Ib:      -1.92e-08   -2.08e-08
Ic:      -4.79e-06   -5.19e-06
Vbe:     -5.82e-01   -5.84e-01
Vbc:      1.42e+00    1.42e+00
Vce:     -2.01e+00   -2.00e+00
BetaDC:   2.50e+02    2.50e+02
Gm:       1.85e-04    2.01e-04
Rpi:      1.35e+06    1.25e+06
Rx:       0.00e+00    0.00e+00
Ro:       2.67e+37    2.09e+37
Cbe:      0.00e+00    0.00e+00
Cbc:      0.00e+00    0.00e+00
Cjs:      0.00e+00    0.00e+00
BetaAC:   2.50e+02    2.50e+02
Cbx:      0.00e+00    0.00e+00
Ft:       0.00e+00    0.00e+00



Date: Thu Nov 03 04:28:31 2022
Total elapsed time: 1.367 seconds.

tnom = 27
temp = 27
method = trap
totiter = 13
traniter = 0
tranpoints = 0
accept = 0
rejected = 0
matrix size = 28
fillins = 37
Matrix Compiler1: 3.93 KB object code size
Matrix Compiler2: 3.37 KB object code size
